
T1B44 000:479 SEGGER J-Link V4.90 Log File (0001ms, 0268ms total)
T1B44 000:479 DLL Compiled: Jul 28 2014 10:35:20 (0001ms, 0268ms total)
T1B44 000:479 Logging started @ 2017-10-10 19:09 (0001ms, 0268ms total)
T1B44 000:480 JLINK_SetWarnOutHandler(...) (0000ms, 0268ms total)
T1B44 000:480 JLINK_OpenEx(...)
Firmware: J-Link ARM V8 compiled Jan 31 2018 18:34:52
Hardware: V8.00
S/N: 20080643
Feature(s): RDI,FlashDL,FlashBP,JFlash,GDBFull  returns O.K. (0257ms, 0525ms total)
T1B44 000:737 JLINK_SetErrorOutHandler(...) (0000ms, 0525ms total)
T1B44 000:737 JLINK_ExecCommand("ProjectFile = "D:\CREELINKS\SolutionLib\S008-小四翼无人机\控制器源代码\KeilProject_NoRTOS\JLinkSettings.ini"", ...)  returns 0x00 (0000ms, 0525ms total)
T1B44 000:737 JLINK_ExecCommand("Device = STM32F103RE", ...)Device "STM32F103RE" selected (512 KB flash, 64 KB RAM).  returns 0x00 (0000ms, 0525ms total)
T1B44 000:737 JLINK_ExecCommand("DisableConnectionTimeout", ...)  returns 0x01 (0000ms, 0525ms total)
T1B44 000:737 JLINK_GetHardwareVersion()  returns 0x13880 (0000ms, 0525ms total)
T1B44 000:737 JLINK_GetDLLVersion()  returns 49000 (0000ms, 0525ms total)
T1B44 000:737 JLINK_GetFirmwareString(...) (0000ms, 0525ms total)
T1B44 000:738 JLINK_GetDLLVersion()  returns 49000 (0000ms, 0525ms total)
T1B44 000:738 JLINK_GetCompileDateTime() (0000ms, 0525ms total)
T1B44 000:738 JLINK_GetFirmwareString(...) (0000ms, 0525ms total)
T1B44 000:738 JLINK_GetHardwareVersion()  returns 0x13880 (0000ms, 0525ms total)
T1B44 000:739 JLINK_TIF_Select(JLINKARM_TIF_JTAG)  returns 0x00 (0001ms, 0526ms total)
T1B44 000:740 JLINK_SetSpeed(20000) (0001ms, 0527ms total)
T1B44 000:741 JLINK_GetIdData(...) >0x2F8 JTAG>TotalIRLen = 9, IRPrint = 0x0011 >0x30 JTAG> >0x210 JTAG> >0x40 JTAG> >0x40 JTAG> >0x40 JTAG> >0x30 JTAG> >0x40 JTAG> >0x40 JTAG> >0x40 JTAG> >0x40 JTAG> >0x40 JTAG> >0x40 JTAG> >0x40 JTAG> >0x40 JTAG> >0x2F8 JTAG>TotalIRLen = 9, IRPrint = 0x0011 >0x30 JTAG> >0x210 JTAG> >0x70 JTAG> >0x40 JTAG> >0x40 JTAG> >0x40 JTAG> >0x50 JTAG> >0x80 JTAG> >0x40 JTAG> >0x30 JTAG> >0x40 JTAG> >0x40 JTAG> >0x30 JTAG> >0x40 JTAG> >0x50 JTAG>
Found Cortex-M3 r1p1, Little endian. -- CPU_WriteMem(4 bytes @ 0xE0002000) -- CPU_ReadMem(4 bytes @ 0xE000EDF0) -- CPU_ReadMem(4 bytes @ 0xE0002000)FPUnit: 6 code (BP) slots and 2 literal slots -- CPU_ReadMem(4 bytes @ 0xE000EDFC) -- CPU_ReadMem(4 bytes @ 0xE0001000) -- CPU_WriteMem(4 bytes @ 0xE0001000) -- CPU_ReadMem(4 bytes @ 0xE00FF010)TPIU fitted. -- CPU_ReadMem(4 bytes @ 0xE00FF014)ETM fitted. -- CPU_ReadMem(4 bytes @ 0xE00FF018) ScanLen=9 NumDevices=2 aId[0]=0x3BA00477 aIrRead[0]=0 aScanLen[0]=0
 aScanRead[0]=0 (0022ms, 0549ms total)
T1B44 000:763 JLINK_JTAG_GetDeviceID(DeviceIndex = 0)  returns 0x3BA00477 (0000ms, 0549ms total)
T1B44 000:763 JLINK_JTAG_GetDeviceInfo(DeviceIndex = 0)  returns 0x00 (0000ms, 0549ms total)
T1B44 000:763 JLINK_JTAG_GetDeviceID(DeviceIndex = 1)  returns 0x6414041 (0000ms, 0549ms total)
T1B44 000:763 JLINK_JTAG_GetDeviceInfo(DeviceIndex = 1)  returns 0x00 (0000ms, 0549ms total)
T1B44 000:763 JLINK_GetDLLVersion()  returns 49000 (0000ms, 0549ms total)
T1B44 000:763 JLINK_CORE_GetFound()  returns 0x30000FF (0000ms, 0549ms total)
T1B44 000:763 JLINK_ReadMem (0xE00FF000, 0x0020 Bytes, ...) -- CPU is running -- CPU_ReadMem(32 bytes @ 0xE00FF000) - Data: 03 F0 F0 FF 03 20 F0 FF 03 30 F0 FF 03 10 F0 FF ...  returns 0x00 (0001ms, 0550ms total)
T1B44 000:764 JLINK_ReadMem (0xE000EFF0, 0x0010 Bytes, ...) -- CPU is running -- CPU_ReadMem(16 bytes @ 0xE000EFF0) - Data: 0D 00 00 00 E0 00 00 00 05 00 00 00 B1 00 00 00  returns 0x00 (0001ms, 0551ms total)
T1B44 000:765 JLINK_ReadMem (0xE000EFD0, 0x0020 Bytes, ...) -- CPU is running -- CPU_ReadMem(32 bytes @ 0xE000EFD0) - Data: 04 00 00 00 00 00 00 00 00 00 00 00 00 00 00 00 ...  returns 0x00 (0000ms, 0551ms total)
T1B44 000:765 JLINK_ReadMem (0xE0001FF0, 0x0010 Bytes, ...) -- CPU is running -- CPU_ReadMem(16 bytes @ 0xE0001FF0) - Data: 0D 00 00 00 E0 00 00 00 05 00 00 00 B1 00 00 00  returns 0x00 (0001ms, 0552ms total)
T1B44 000:766 JLINK_ReadMem (0xE0001FD0, 0x0020 Bytes, ...) -- CPU is running -- CPU_ReadMem(32 bytes @ 0xE0001FD0) - Data: 04 00 00 00 00 00 00 00 00 00 00 00 00 00 00 00 ...  returns 0x00 (0001ms, 0553ms total)
T1B44 000:767 JLINK_ReadMem (0xE0002FF0, 0x0010 Bytes, ...) -- CPU is running -- CPU_ReadMem(16 bytes @ 0xE0002FF0) - Data: 0D 00 00 00 E0 00 00 00 05 00 00 00 B1 00 00 00  returns 0x00 (0000ms, 0553ms total)
T1B44 000:767 JLINK_ReadMem (0xE0002FD0, 0x0020 Bytes, ...) -- CPU is running -- CPU_ReadMem(32 bytes @ 0xE0002FD0) - Data: 04 00 00 00 00 00 00 00 00 00 00 00 00 00 00 00 ...  returns 0x00 (0001ms, 0554ms total)
T1B44 000:768 JLINK_ReadMem (0xE0000FF0, 0x0010 Bytes, ...) -- CPU is running -- CPU_ReadMem(16 bytes @ 0xE0000FF0) - Data: 0D 00 00 00 E0 00 00 00 05 00 00 00 B1 00 00 00  returns 0x00 (0000ms, 0554ms total)
T1B44 000:768 JLINK_ReadMem (0xE0000FD0, 0x0020 Bytes, ...) -- CPU is running -- CPU_ReadMem(32 bytes @ 0xE0000FD0) - Data: 04 00 00 00 00 00 00 00 00 00 00 00 00 00 00 00 ...  returns 0x00 (0001ms, 0555ms total)
T1B44 000:769 JLINK_ReadMem (0xE0040FF0, 0x0010 Bytes, ...) -- CPU is running -- CPU_ReadMem(16 bytes @ 0xE0040FF0) - Data: 0D 00 00 00 90 00 00 00 05 00 00 00 B1 00 00 00  returns 0x00 (0001ms, 0556ms total)
T1B44 000:770 JLINK_ReadMem (0xE0040FD0, 0x0020 Bytes, ...) -- CPU is running -- CPU_ReadMem(32 bytes @ 0xE0040FD0) - Data: 04 00 00 00 00 00 00 00 00 00 00 00 00 00 00 00 ...  returns 0x00 (0000ms, 0556ms total)
T1B44 000:770 JLINK_ReadMem (0xE0041FF0, 0x0010 Bytes, ...) -- CPU is running -- CPU_ReadMem(16 bytes @ 0xE0041FF0) - Data: 0D 00 00 00 90 00 00 00 05 00 00 00 B1 00 00 00  returns 0x00 (0001ms, 0557ms total)
T1B44 000:771 JLINK_ReadMem (0xE0041FD0, 0x0020 Bytes, ...) -- CPU is running -- CPU_ReadMem(32 bytes @ 0xE0041FD0) - Data: 04 00 00 00 00 00 00 00 00 00 00 00 00 00 00 00 ...  returns 0x00 (0000ms, 0557ms total)
T1B44 000:771 JLINK_ReadMemU32(0xE000ED00, 0x0001 Items, ...) -- CPU is running -- CPU_ReadMem(4 bytes @ 0xE000ED00) - Data: 31 C2 1F 41  returns 0x01 (0001ms, 0558ms total)
T1B44 000:772 JLINK_SetResetType(JLINKARM_RESET_TYPE_NORMAL)  returns JLINKARM_RESET_TYPE_NORMAL (0000ms, 0558ms total)
T1B44 000:772 JLINK_Reset() -- CPU is running -- CPU_WriteMem(4 bytes @ 0xE000EDF0) -- CPU is running -- CPU_WriteMem(4 bytes @ 0xE000EDFC) -- CPU is running -- CPU_WriteMem(4 bytes @ 0xE000ED0C) -- CPU is running -- CPU_ReadMem(4 bytes @ 0xE000EDF0) -- CPU is running -- CPU_ReadMem(4 bytes @ 0xE000EDF0) -- CPU is running -- CPU_ReadMem(4 bytes @ 0xE000EDF0) -- CPU is running -- CPU_ReadMem(4 bytes @ 0xE000EDF0) -- CPU is running -- CPU_ReadMem(4 bytes @ 0xE000EDF0) -- CPU is running
 -- CPU_ReadMem(4 bytes @ 0xE000EDF0) -- CPU is running -- CPU_ReadMem(4 bytes @ 0xE000EDF0) -- CPU is running -- CPU_ReadMem(4 bytes @ 0xE000EDF0) -- CPU is running -- CPU_ReadMem(4 bytes @ 0xE000EDF0) -- CPU is running -- CPU_ReadMem(4 bytes @ 0xE000EDF0) -- CPU is running -- CPU_WriteMem(4 bytes @ 0xE000EDF0) -- CPU is running -- CPU_WriteMem(4 bytes @ 0xE000EDFC) -- CPU is running -- CPU_ReadMem(4 bytes @ 0xE000EDF0) >0x80 JTAG> >0x40 JTAG> >0x30 JTAG> >0x40 JTAG> >0x50 JTAG> >0x40 JTAG>
 -- CPU_WriteMem(4 bytes @ 0xE000EDFC) -- CPU_WriteMem(4 bytes @ 0xE0001028) -- CPU_WriteMem(4 bytes @ 0xE0001038) -- CPU_WriteMem(4 bytes @ 0xE0001048) -- CPU_WriteMem(4 bytes @ 0xE0001058) -- CPU_WriteMem(4 bytes @ 0xE0002000) -- CPU_ReadMem(4 bytes @ 0xE000EDFC) -- CPU_ReadMem(4 bytes @ 0xE0001000) (0028ms, 0586ms total)
T1B44 000:800 JLINK_ReadReg(R15 (PC))  returns 0x200001E0 (0000ms, 0586ms total)
T1B44 000:800 JLINK_ReadReg(XPSR)  returns 0x01000000 (0000ms, 0586ms total)
T1B44 000:800 JLINK_Halt()  returns 0x00 (0000ms, 0586ms total)
T1B44 000:800 JLINK_IsHalted()  returns TRUE (0000ms, 0586ms total)
T1B44 000:800 JLINK_ReadMemU32(0xE000EDF0, 0x0001 Items, ...) -- CPU_ReadMem(4 bytes @ 0xE000EDF0) - Data: 03 00 03 00  returns 0x01 (0001ms, 0587ms total)
T1B44 000:801 JLINK_WriteU32(0xE000EDF0, 0xA05F0003) -- CPU_WriteMem(4 bytes @ 0xE000EDF0)  returns 0x00 (0001ms, 0588ms total)
T1B44 000:802 JLINK_WriteU32(0xE000EDFC, 0x01000000) -- CPU_WriteMem(4 bytes @ 0xE000EDFC)  returns 0x00 (0000ms, 0588ms total)
T1B44 000:802 JLINK_GetHWStatus(...)  returns 0x00 (0001ms, 0589ms total)
T1B44 000:803 JLINK_GetNumBPUnits(Type = 0xFFFFFF00)  returns 0x06 (0000ms, 0589ms total)
T1B44 000:803 JLINK_GetNumBPUnits(Type = 0xF0)  returns 0x2000 (0000ms, 0589ms total)
T1B44 000:803 JLINK_GetNumWPUnits()  returns 0x04 (0000ms, 0589ms total)
T1B44 000:803 JLINK_GetSpeed()  returns 0x2EE0 (0000ms, 0589ms total)
T1B44 000:803 JLINK_ReadMemU32(0xE000E004, 0x0001 Items, ...) -- CPU_ReadMem(4 bytes @ 0xE000E004) - Data: 01 00 00 00  returns 0x01 (0001ms, 0590ms total)
T1B44 000:804 JLINK_ReadMemU32(0xE000E004, 0x0001 Items, ...) -- CPU_ReadMem(4 bytes @ 0xE000E004) - Data: 01 00 00 00  returns 0x01 (0000ms, 0590ms total)
T1B44 000:804 JLINK_WriteMem(0xE0001000, 0x001C Bytes, ...) - Data: 01 00 00 00 00 00 00 00 00 00 00 00 00 00 00 00 ... -- CPU_WriteMem(28 bytes @ 0xE0001000)  returns 0x1C (0001ms, 0591ms total)
T1B44 000:805 JLINK_ReadMem (0xE0001000, 0x001C Bytes, ...) -- CPU_ReadMem(28 bytes @ 0xE0001000) - Data: 01 00 00 40 00 00 00 00 00 00 00 00 00 00 00 00 ...  returns 0x00 (0000ms, 0591ms total)
T1B44 000:805 JLINK_ReadReg(R15 (PC))  returns 0x200001E0 (0000ms, 0591ms total)
T1B44 000:805 JLINK_ReadReg(XPSR)  returns 0x01000000 (0000ms, 0591ms total)
T1B44 000:894 JLINK_SetResetType(JLINKARM_RESET_TYPE_NORMAL)  returns JLINKARM_RESET_TYPE_NORMAL (0000ms, 0591ms total)
T1B44 000:894 JLINK_Reset() -- CPU_WriteMem(4 bytes @ 0xE000EDF0) -- CPU_WriteMem(4 bytes @ 0xE000EDFC) -- CPU_WriteMem(4 bytes @ 0xE000ED0C) -- CPU_ReadMem(4 bytes @ 0xE000EDF0) -- CPU_ReadMem(4 bytes @ 0xE000EDF0) -- CPU_ReadMem(4 bytes @ 0xE000EDF0) -- CPU_ReadMem(4 bytes @ 0xE000EDF0) -- CPU_ReadMem(4 bytes @ 0xE000EDF0) -- CPU_ReadMem(4 bytes @ 0xE000EDF0) -- CPU_ReadMem(4 bytes @ 0xE000EDF0) -- CPU_ReadMem(4 bytes @ 0xE000EDF0) -- CPU_ReadMem(4 bytes @ 0xE000EDF0)
 -- CPU_ReadMem(4 bytes @ 0xE000EDF0) -- CPU_ReadMem(4 bytes @ 0xE000EDF0) -- CPU_WriteMem(4 bytes @ 0xE000EDF0) -- CPU_WriteMem(4 bytes @ 0xE000EDFC) -- CPU is running -- CPU_ReadMem(4 bytes @ 0xE000EDF0) >0x80 JTAG> >0x40 JTAG> >0x30 JTAG> >0x40 JTAG> >0x50 JTAG> >0x40 JTAG> -- CPU_WriteMem(4 bytes @ 0xE000EDFC) -- CPU_WriteMem(4 bytes @ 0xE0001028) -- CPU_WriteMem(4 bytes @ 0xE0001038) -- CPU_WriteMem(4 bytes @ 0xE0001048) -- CPU_WriteMem(4 bytes @ 0xE0001058) -- CPU_WriteMem(4 bytes @ 0xE0002000)
 -- CPU_ReadMem(4 bytes @ 0xE000EDFC) -- CPU_ReadMem(4 bytes @ 0xE0001000) (0028ms, 0619ms total)
T1B44 000:922 JLINK_ReadReg(R15 (PC))  returns 0x200001E0 (0000ms, 0619ms total)
T1B44 000:922 JLINK_ReadReg(XPSR)  returns 0x01000000 (0000ms, 0619ms total)
T1B44 000:922 JLINK_ReadMem (0x200001E0, 0x003C Bytes, ...) -- CPU_ReadMem(128 bytes @ 0x200001C0) -- Updating C cache (128 bytes @ 0x200001C0) -- Read from C cache (60 bytes @ 0x200001E0) - Data: 3A 25 73 2C 20 4F 31 3A 25 64 2C 20 4F 32 3A 25 ...  returns 0x00 (0002ms, 0621ms total)
T1B44 001:261 JLINK_ReadMem (0x00000000, 0x0212 Bytes, ...) -- CPU_ReadMem(4 bytes @ 0x00000004) -- CPU_ReadMem(448 bytes @ 0x20000000) -- Updating C cache (448 bytes @ 0x20000000) -- Read from C cache (530 bytes @ 0x20000000) - Data: FE E7 0A E0 0D 78 2D 06 68 40 08 24 40 00 00 D3 ...  returns 0x00 (0007ms, 0628ms total)
T1B44 001:478 JLINK_ReadMem (0x2000021C, 0x003C Bytes, ...) -- CPU_ReadMem(64 bytes @ 0x20000240) -- Updating C cache (64 bytes @ 0x20000240) -- Read from C cache (60 bytes @ 0x2000021C) - Data: 6B 65 74 20 6D 6F 64 65 3A 25 73 2C 20 49 50 3A ...  returns 0x00 (0001ms, 0629ms total)
T1B44 001:525 JLINK_ReadMem (0x0800866C, 0x003C Bytes, ...) -- CPU_ReadMem(128 bytes @ 0x08008640) -- Updating C cache (128 bytes @ 0x08008640) -- Read from C cache (60 bytes @ 0x0800866C) - Data: 08 49 08 68 80 47 08 48 01 68 4F F0 02 20 88 47 ...  returns 0x00 (0001ms, 0630ms total)
T1B44 001:526 JLINK_ReadMem (0x080086A8, 0x003C Bytes, ...) -- CPU_ReadMem(64 bytes @ 0x080086C0) -- Updating C cache (64 bytes @ 0x080086C0) -- Read from C cache (60 bytes @ 0x080086A8) - Data: 88 47 07 48 2A 46 21 46 C3 68 06 48 98 47 02 48 ...  returns 0x00 (0001ms, 0631ms total)
T1B44 001:656 JLINK_ReadMem (0x200009D8, 0x0020 Bytes, ...) -- CPU_ReadMem(64 bytes @ 0x200009C0) -- Updating C cache (64 bytes @ 0x200009C0) -- Read from C cache (32 bytes @ 0x200009D8) - Data: A9 23 2A 6A 2B 3C 2D 77 7C 06 B9 34 7A 04 EA 18 ...  returns 0x00 (0001ms, 0632ms total)
T0FEC 001:760 JLINK_SetBPEx(Addr = 0x0800866C, Type = 0xFFFFFFF2)  returns 0x00000001 (0000ms, 0632ms total)
T0FEC 001:760 JLINK_SetBPEx(Addr = 0x0800433C, Type = 0xFFFFFFF2)  returns 0x00000002 (0000ms, 0632ms total)
T0FEC 001:760 JLINK_SetBPEx(Addr = 0x080083FA, Type = 0xFFFFFFF2)  returns 0x00000003 (0000ms, 0632ms total)
T0FEC 001:760 JLINK_Go() -- CPU_WriteMem(4 bytes @ 0xE0002008) -- CPU_WriteMem(4 bytes @ 0xE000200C) -- CPU_WriteMem(4 bytes @ 0xE0002010) -- CPU_WriteMem(4 bytes @ 0xE0002014) -- CPU_WriteMem(4 bytes @ 0xE0002018) -- CPU_WriteMem(4 bytes @ 0xE000201C) -- CPU_WriteMem(4 bytes @ 0xE0001004) (0004ms, 0636ms total)
T1B44 001:828 JLINK_ReadMem (0x08009E74, 0x0004 Bytes, ...) -- CPU is running -- CPU_ReadMem(4 bytes @ 0x08009E74) - Data: BD 22 00 08  returns 0x00 (0000ms, 0636ms total)
T1B44 001:828 JLINK_ReadMem (0x08009E78, 0x0004 Bytes, ...) -- CPU is running -- CPU_ReadMem(4 bytes @ 0x08009E78) - Data: 25 23 00 08  returns 0x00 (0001ms, 0637ms total)
T1B44 001:829 JLINK_ReadMem (0x08009E7C, 0x0004 Bytes, ...) -- CPU is running -- CPU_ReadMem(4 bytes @ 0x08009E7C) - Data: 7D 22 00 08  returns 0x00 (0000ms, 0637ms total)
T1B44 001:829 JLINK_ReadMem (0x08009E80, 0x0004 Bytes, ...) -- CPU is running -- CPU_ReadMem(4 bytes @ 0x08009E80) - Data: 61 23 00 08  returns 0x00 (0001ms, 0638ms total)
T1B44 001:830 JLINK_ReadMem (0x08009E84, 0x0004 Bytes, ...) -- CPU is running -- CPU_ReadMem(4 bytes @ 0x08009E84) - Data: ED 23 00 08  returns 0x00 (0001ms, 0639ms total)
T0FEC 001:864 JLINK_IsHalted()T-bit of XPSR is 0 but should be 1. Changed to 1.  returns TRUE (0003ms, 0642ms total)
T0FEC 001:867 JLINK_Halt()  returns 0x00 (0000ms, 0639ms total)
T0FEC 001:867 JLINK_IsHalted()  returns TRUE (0000ms, 0639ms total)
T0FEC 001:867 JLINK_IsHalted()  returns TRUE (0000ms, 0639ms total)
T0FEC 001:867 JLINK_IsHalted()  returns TRUE (0000ms, 0639ms total)
T0FEC 001:867 JLINK_ReadReg(R15 (PC))  returns 0x20000004 (0000ms, 0639ms total)
T0FEC 001:867 JLINK_ReadReg(XPSR)  returns 0x01000003 (0000ms, 0639ms total)
T0FEC 001:867 JLINK_ClrBPEx(BPHandle = 0x00000001)  returns 0x00 (0000ms, 0639ms total)
T0FEC 001:867 JLINK_ClrBPEx(BPHandle = 0x00000002)  returns 0x00 (0000ms, 0639ms total)
T0FEC 001:867 JLINK_ClrBPEx(BPHandle = 0x00000003)  returns 0x00 (0000ms, 0639ms total)
T0FEC 001:867 JLINK_ReadMemU32(0xE000ED30, 0x0001 Items, ...) -- CPU_ReadMem(4 bytes @ 0xE000ED30) - Data: 01 00 00 00  returns 0x01 (0001ms, 0640ms total)
T0FEC 001:868 JLINK_ReadMemU32(0xE0001028, 0x0001 Items, ...) -- CPU_ReadMem(4 bytes @ 0xE0001028) - Data: 00 00 00 00  returns 0x01 (0000ms, 0640ms total)
T0FEC 001:868 JLINK_ReadMemU32(0xE0001038, 0x0001 Items, ...) -- CPU_ReadMem(4 bytes @ 0xE0001038) - Data: 00 02 00 00  returns 0x01 (0001ms, 0641ms total)
T0FEC 001:869 JLINK_ReadMemU32(0xE0001048, 0x0001 Items, ...) -- CPU_ReadMem(4 bytes @ 0xE0001048) - Data: 00 00 00 00  returns 0x01 (0000ms, 0641ms total)
T0FEC 001:869 JLINK_ReadMemU32(0xE0001058, 0x0001 Items, ...) -- CPU_ReadMem(4 bytes @ 0xE0001058) - Data: 00 00 00 00  returns 0x01 (0001ms, 0642ms total)
T0FEC 001:870 JLINK_ReadReg(R0)  returns 0x0000002C (0000ms, 0642ms total)
T0FEC 001:870 JLINK_ReadReg(R1)  returns 0x00000003 (0000ms, 0642ms total)
T0FEC 001:870 JLINK_ReadReg(R2)  returns 0x4002203C (0000ms, 0642ms total)
T0FEC 001:870 JLINK_ReadReg(R3)  returns 0x04C11DB7 (0000ms, 0642ms total)
T0FEC 001:870 JLINK_ReadReg(R4)  returns 0x00000000 (0000ms, 0642ms total)
T0FEC 001:870 JLINK_ReadReg(R5)  returns 0x0000003A (0000ms, 0642ms total)
T0FEC 001:870 JLINK_ReadReg(R6)  returns 0x00000000 (0000ms, 0642ms total)
T0FEC 001:870 JLINK_ReadReg(R7)  returns 0x2000018C (0000ms, 0642ms total)
T0FEC 001:870 JLINK_ReadReg(R8)  returns 0x00000000 (0000ms, 0642ms total)
T0FEC 001:870 JLINK_ReadReg(R9)  returns 0x20000160 (0000ms, 0642ms total)
T0FEC 001:870 JLINK_ReadReg(R10)  returns 0x00000000 (0000ms, 0642ms total)
T0FEC 001:870 JLINK_ReadReg(R11)  returns 0x00000000 (0000ms, 0642ms total)
T0FEC 001:870 JLINK_ReadReg(R12)  returns 0x00000000 (0000ms, 0642ms total)
T0FEC 001:870 JLINK_ReadReg(R13 (SP))  returns 0x20004FE0 (0000ms, 0642ms total)
T0FEC 001:870 JLINK_ReadReg(R14)  returns 0xFFFFFFF9 (0000ms, 0642ms total)
T0FEC 001:870 JLINK_ReadReg(R15 (PC))  returns 0x20000004 (0000ms, 0642ms total)
T0FEC 001:870 JLINK_ReadReg(XPSR)  returns 0x01000003 (0000ms, 0642ms total)
T0FEC 001:870 JLINK_ReadReg(MSP)  returns 0x20004FE0 (0000ms, 0642ms total)
T0FEC 001:870 JLINK_ReadReg(PSP)  returns 0x20001000 (0000ms, 0642ms total)
T0FEC 001:870 JLINK_ReadReg(CFBP)  returns 0x00000000 (0000ms, 0642ms total)
T1B44 001:870 JLINK_ReadMem (0x20004FF8, 0x0004 Bytes, ...) -- CPU_ReadMem(64 bytes @ 0x20004FC0) -- Updating C cache (64 bytes @ 0x20004FC0) -- Read from C cache (4 bytes @ 0x20004FF8) - Data: F4 01 00 20  returns 0x00 (0001ms, 0643ms total)
T1B44 001:871 JLINK_ReadMem (0x20004FFC, 0x0004 Bytes, ...) -- Read from C cache (4 bytes @ 0x20004FFC) - Data: 00 00 00 01  returns 0x00 (0000ms, 0643ms total)
T1B44 001:871 JLINK_ReadMem (0x20004FF4, 0x0004 Bytes, ...) -- Read from C cache (4 bytes @ 0x20004FF4) - Data: FF FF FF FF  returns 0x00 (0000ms, 0643ms total)
T1B44 001:871 JLINK_ReadMem (0xE000ED28, 0x0004 Bytes, ...) -- CPU_ReadMem(4 bytes @ 0xE000ED28) - Data: 00 04 02 00  returns 0x00 (0001ms, 0644ms total)
T1B44 001:872 JLINK_ReadMem (0x200009D8, 0x0020 Bytes, ...) -- CPU_ReadMem(64 bytes @ 0x200009C0) -- Updating C cache (64 bytes @ 0x200009C0) -- Read from C cache (32 bytes @ 0x200009D8) - Data: A9 23 2A 6A 2B 3C 2D 77 7C 06 B9 34 7A 04 EA 18 ...  returns 0x00 (0001ms, 0645ms total)
T1B44 001:908 JLINK_ReadMem (0x20000004, 0x003C Bytes, ...) -- CPU_ReadMem(64 bytes @ 0x20000000) -- Updating C cache (64 bytes @ 0x20000000) -- Read from C cache (60 bytes @ 0x20000004) - Data: 0D 78 2D 06 68 40 08 24 40 00 00 D3 58 40 64 1E ...  returns 0x00 (0001ms, 0646ms total)
T1B44 001:910 JLINK_ReadMem (0x20000040, 0x003C Bytes, ...) -- CPU_ReadMem(64 bytes @ 0x20000040) -- Updating C cache (64 bytes @ 0x20000040) -- Read from C cache (60 bytes @ 0x20000040) - Data: 20 60 44 48 60 60 44 48 60 60 20 46 C0 69 10 F0 ...  returns 0x00 (0001ms, 0647ms total)
T1B44 001:911 JLINK_ReadMem (0x2000007C, 0x003C Bytes, ...) -- CPU_ReadMem(64 bytes @ 0x20000080) -- Updating C cache (64 bytes @ 0x20000080) -- Read from C cache (60 bytes @ 0x2000007C) - Data: 34 48 00 69 40 F0 04 00 32 49 08 61 08 46 00 69 ...  returns 0x00 (0001ms, 0648ms total)
T0FEC 007:851 JLINK_Step() -- Read from C cache (2 bytes @ 0x20000004) -- CPU_ReadMem(4 bytes @ 0xE0001004) -- CPU_ReadMem(4 bytes @ 0x00000004) -- Read from C cache (1 bytes @ 0x20000003) -- Simulated  returns 0x00 (0003ms, 0651ms total)
T0FEC 007:855 JLINK_ReadReg(R15 (PC))  returns 0x20000006 (0000ms, 0651ms total)
T0FEC 007:855 JLINK_ReadReg(XPSR)  returns 0x01000003 (0000ms, 0651ms total)
T0FEC 007:855 JLINK_ReadReg(R0)  returns 0x0000002C (0000ms, 0651ms total)
T0FEC 007:855 JLINK_ReadReg(R1)  returns 0x00000003 (0000ms, 0651ms total)
T0FEC 007:855 JLINK_ReadReg(R2)  returns 0x4002203C (0000ms, 0651ms total)
T0FEC 007:855 JLINK_ReadReg(R3)  returns 0x04C11DB7 (0000ms, 0651ms total)
T0FEC 007:855 JLINK_ReadReg(R4)  returns 0x00000000 (0000ms, 0651ms total)
T0FEC 007:855 JLINK_ReadReg(R5)  returns 0x000000E0 (0000ms, 0651ms total)
T0FEC 007:855 JLINK_ReadReg(R6)  returns 0x00000000 (0000ms, 0651ms total)
T0FEC 007:855 JLINK_ReadReg(R7)  returns 0x2000018C (0000ms, 0651ms total)
T0FEC 007:855 JLINK_ReadReg(R8)  returns 0x00000000 (0000ms, 0651ms total)
T0FEC 007:855 JLINK_ReadReg(R9)  returns 0x20000160 (0000ms, 0651ms total)
T0FEC 007:855 JLINK_ReadReg(R10)  returns 0x00000000 (0000ms, 0651ms total)
T0FEC 007:855 JLINK_ReadReg(R11)  returns 0x00000000 (0000ms, 0651ms total)
T0FEC 007:855 JLINK_ReadReg(R12)  returns 0x00000000 (0000ms, 0651ms total)
T0FEC 007:855 JLINK_ReadReg(R13 (SP))  returns 0x20004FE0 (0000ms, 0651ms total)
T0FEC 007:855 JLINK_ReadReg(R14)  returns 0xFFFFFFF9 (0000ms, 0651ms total)
T0FEC 007:855 JLINK_ReadReg(R15 (PC))  returns 0x20000006 (0000ms, 0651ms total)
T0FEC 007:855 JLINK_ReadReg(XPSR)  returns 0x01000003 (0000ms, 0651ms total)
T0FEC 007:855 JLINK_ReadReg(MSP)  returns 0x20004FE0 (0000ms, 0651ms total)
T0FEC 007:855 JLINK_ReadReg(PSP)  returns 0x20001000 (0000ms, 0651ms total)
T0FEC 007:855 JLINK_ReadReg(CFBP)  returns 0x00000000 (0000ms, 0651ms total)
T1B44 007:856 JLINK_ReadMem (0x20004FF8, 0x0004 Bytes, ...) -- Read from C cache (4 bytes @ 0x20004FF8) - Data: F4 01 00 20  returns 0x00 (0000ms, 0651ms total)
T1B44 007:856 JLINK_ReadMem (0x20004FFC, 0x0004 Bytes, ...) -- Read from C cache (4 bytes @ 0x20004FFC) - Data: 00 00 00 01  returns 0x00 (0000ms, 0651ms total)
T1B44 007:856 JLINK_ReadMem (0x20004FF4, 0x0004 Bytes, ...) -- Read from C cache (4 bytes @ 0x20004FF4) - Data: FF FF FF FF  returns 0x00 (0000ms, 0651ms total)
T1B44 007:856 JLINK_ReadMem (0xE000ED28, 0x0004 Bytes, ...) -- CPU_ReadMem(4 bytes @ 0xE000ED28) - Data: 00 04 02 00  returns 0x00 (0000ms, 0651ms total)
T1B44 007:857 JLINK_ReadMem (0x200009D8, 0x0020 Bytes, ...) -- Read from C cache (32 bytes @ 0x200009D8) - Data: A9 23 2A 6A 2B 3C 2D 77 7C 06 B9 34 7A 04 EA 18 ...  returns 0x00 (0000ms, 0651ms total)
T0FEC 008:391 JLINK_ReadMem (0x20000006, 0x0002 Bytes, ...) -- Read from C cache (2 bytes @ 0x20000006) - Data: 2D 06  returns 0x00 (0000ms, 0651ms total)
T0FEC 008:391 JLINK_ReadMem (0x20000008, 0x003C Bytes, ...) -- Read from C cache (60 bytes @ 0x20000008) - Data: 68 40 08 24 40 00 00 D3 58 40 64 1E FA D1 49 1C ...  returns 0x00 (0000ms, 0651ms total)
T0FEC 008:391 JLINK_Step() -- Read from C cache (2 bytes @ 0x20000006) -- Simulated  returns 0x00 (0001ms, 0652ms total)
T0FEC 008:392 JLINK_ReadReg(R15 (PC))  returns 0x20000008 (0000ms, 0652ms total)
T0FEC 008:392 JLINK_ReadReg(XPSR)  returns 0x81000003 (0000ms, 0652ms total)
T0FEC 008:392 JLINK_ReadReg(R0)  returns 0x0000002C (0000ms, 0652ms total)
T0FEC 008:392 JLINK_ReadReg(R1)  returns 0x00000003 (0000ms, 0652ms total)
T0FEC 008:392 JLINK_ReadReg(R2)  returns 0x4002203C (0000ms, 0652ms total)
T0FEC 008:392 JLINK_ReadReg(R3)  returns 0x04C11DB7 (0000ms, 0652ms total)
T0FEC 008:392 JLINK_ReadReg(R4)  returns 0x00000000 (0000ms, 0652ms total)
T0FEC 008:392 JLINK_ReadReg(R5)  returns 0xE0000000 (0000ms, 0652ms total)
T0FEC 008:392 JLINK_ReadReg(R6)  returns 0x00000000 (0000ms, 0652ms total)
T0FEC 008:392 JLINK_ReadReg(R7)  returns 0x2000018C (0000ms, 0652ms total)
T0FEC 008:392 JLINK_ReadReg(R8)  returns 0x00000000 (0000ms, 0652ms total)
T0FEC 008:392 JLINK_ReadReg(R9)  returns 0x20000160 (0000ms, 0652ms total)
T0FEC 008:392 JLINK_ReadReg(R10)  returns 0x00000000 (0000ms, 0652ms total)
T0FEC 008:392 JLINK_ReadReg(R11)  returns 0x00000000 (0000ms, 0652ms total)
T0FEC 008:392 JLINK_ReadReg(R12)  returns 0x00000000 (0000ms, 0652ms total)
T0FEC 008:392 JLINK_ReadReg(R13 (SP))  returns 0x20004FE0 (0000ms, 0652ms total)
T0FEC 008:392 JLINK_ReadReg(R14)  returns 0xFFFFFFF9 (0000ms, 0652ms total)
T0FEC 008:392 JLINK_ReadReg(R15 (PC))  returns 0x20000008 (0000ms, 0652ms total)
T0FEC 008:392 JLINK_ReadReg(XPSR)  returns 0x81000003 (0000ms, 0652ms total)
T0FEC 008:392 JLINK_ReadReg(MSP)  returns 0x20004FE0 (0000ms, 0652ms total)
T0FEC 008:392 JLINK_ReadReg(PSP)  returns 0x20001000 (0000ms, 0652ms total)
T0FEC 008:392 JLINK_ReadReg(CFBP)  returns 0x00000000 (0000ms, 0652ms total)
T1B44 008:392 JLINK_ReadMem (0x20004FF8, 0x0004 Bytes, ...) -- Read from C cache (4 bytes @ 0x20004FF8) - Data: F4 01 00 20  returns 0x00 (0000ms, 0652ms total)
T1B44 008:392 JLINK_ReadMem (0x20004FFC, 0x0004 Bytes, ...) -- Read from C cache (4 bytes @ 0x20004FFC) - Data: 00 00 00 01  returns 0x00 (0000ms, 0652ms total)
T1B44 008:392 JLINK_ReadMem (0x20004FF4, 0x0004 Bytes, ...) -- Read from C cache (4 bytes @ 0x20004FF4) - Data: FF FF FF FF  returns 0x00 (0000ms, 0652ms total)
T1B44 008:392 JLINK_ReadMem (0xE000ED28, 0x0004 Bytes, ...) -- CPU_ReadMem(4 bytes @ 0xE000ED28) - Data: 00 04 02 00  returns 0x00 (0001ms, 0653ms total)
T1B44 008:393 JLINK_ReadMem (0x200009D8, 0x0020 Bytes, ...) -- Read from C cache (32 bytes @ 0x200009D8) - Data: A9 23 2A 6A 2B 3C 2D 77 7C 06 B9 34 7A 04 EA 18 ...  returns 0x00 (0000ms, 0653ms total)
T0FEC 008:774 JLINK_ReadMem (0x20000008, 0x003C Bytes, ...) -- Read from C cache (60 bytes @ 0x20000008) - Data: 68 40 08 24 40 00 00 D3 58 40 64 1E FA D1 49 1C ...  returns 0x00 (0000ms, 0653ms total)
T0FEC 008:774 JLINK_Step() -- Read from C cache (2 bytes @ 0x20000008) -- Simulated  returns 0x00 (0000ms, 0653ms total)
T0FEC 008:774 JLINK_ReadReg(R15 (PC))  returns 0x2000000A (0000ms, 0653ms total)
T0FEC 008:774 JLINK_ReadReg(XPSR)  returns 0x81000003 (0000ms, 0653ms total)
T0FEC 008:774 JLINK_ReadReg(R0)  returns 0xE000002C (0000ms, 0653ms total)
T0FEC 008:774 JLINK_ReadReg(R1)  returns 0x00000003 (0000ms, 0653ms total)
T0FEC 008:774 JLINK_ReadReg(R2)  returns 0x4002203C (0000ms, 0653ms total)
T0FEC 008:774 JLINK_ReadReg(R3)  returns 0x04C11DB7 (0000ms, 0653ms total)
T0FEC 008:774 JLINK_ReadReg(R4)  returns 0x00000000 (0000ms, 0653ms total)
T0FEC 008:774 JLINK_ReadReg(R5)  returns 0xE0000000 (0000ms, 0653ms total)
T0FEC 008:774 JLINK_ReadReg(R6)  returns 0x00000000 (0000ms, 0653ms total)
T0FEC 008:774 JLINK_ReadReg(R7)  returns 0x2000018C (0000ms, 0653ms total)
T0FEC 008:774 JLINK_ReadReg(R8)  returns 0x00000000 (0000ms, 0653ms total)
T0FEC 008:774 JLINK_ReadReg(R9)  returns 0x20000160 (0000ms, 0653ms total)
T0FEC 008:774 JLINK_ReadReg(R10)  returns 0x00000000 (0000ms, 0653ms total)
T0FEC 008:774 JLINK_ReadReg(R11)  returns 0x00000000 (0000ms, 0653ms total)
T0FEC 008:774 JLINK_ReadReg(R12)  returns 0x00000000 (0000ms, 0653ms total)
T0FEC 008:774 JLINK_ReadReg(R13 (SP))  returns 0x20004FE0 (0000ms, 0653ms total)
T0FEC 008:774 JLINK_ReadReg(R14)  returns 0xFFFFFFF9 (0000ms, 0653ms total)
T0FEC 008:774 JLINK_ReadReg(R15 (PC))  returns 0x2000000A (0000ms, 0653ms total)
T0FEC 008:774 JLINK_ReadReg(XPSR)  returns 0x81000003 (0000ms, 0653ms total)
T0FEC 008:774 JLINK_ReadReg(MSP)  returns 0x20004FE0 (0000ms, 0653ms total)
T0FEC 008:774 JLINK_ReadReg(PSP)  returns 0x20001000 (0000ms, 0653ms total)
T0FEC 008:774 JLINK_ReadReg(CFBP)  returns 0x00000000 (0000ms, 0653ms total)
T1B44 008:775 JLINK_ReadMem (0x20004FF8, 0x0004 Bytes, ...) -- Read from C cache (4 bytes @ 0x20004FF8) - Data: F4 01 00 20  returns 0x00 (0000ms, 0653ms total)
T1B44 008:775 JLINK_ReadMem (0x20004FFC, 0x0004 Bytes, ...) -- Read from C cache (4 bytes @ 0x20004FFC) - Data: 00 00 00 01  returns 0x00 (0000ms, 0653ms total)
T1B44 008:775 JLINK_ReadMem (0x20004FF4, 0x0004 Bytes, ...) -- Read from C cache (4 bytes @ 0x20004FF4) - Data: FF FF FF FF  returns 0x00 (0000ms, 0653ms total)
T1B44 008:775 JLINK_ReadMem (0xE000ED28, 0x0004 Bytes, ...) -- CPU_ReadMem(4 bytes @ 0xE000ED28) - Data: 00 04 02 00  returns 0x00 (0000ms, 0653ms total)
T1B44 008:775 JLINK_ReadMem (0x200009D8, 0x0020 Bytes, ...) -- Read from C cache (32 bytes @ 0x200009D8) - Data: A9 23 2A 6A 2B 3C 2D 77 7C 06 B9 34 7A 04 EA 18 ...  returns 0x00 (0000ms, 0653ms total)
T0FEC 009:057 JLINK_ReadMem (0x2000000A, 0x0002 Bytes, ...) -- Read from C cache (2 bytes @ 0x2000000A) - Data: 08 24  returns 0x00 (0000ms, 0653ms total)
T0FEC 009:057 JLINK_ReadMem (0x2000000C, 0x003C Bytes, ...) -- Read from C cache (60 bytes @ 0x2000000C) - Data: 40 00 00 D3 58 40 64 1E FA D1 49 1C 52 1E 00 2A ...  returns 0x00 (0000ms, 0653ms total)
T0FEC 009:057 JLINK_Step() -- Read from C cache (2 bytes @ 0x2000000A) -- Simulated  returns 0x00 (0001ms, 0654ms total)
T0FEC 009:058 JLINK_ReadReg(R15 (PC))  returns 0x2000000C (0000ms, 0654ms total)
T0FEC 009:058 JLINK_ReadReg(XPSR)  returns 0x01000003 (0000ms, 0654ms total)
T0FEC 009:058 JLINK_ReadReg(R0)  returns 0xE000002C (0000ms, 0654ms total)
T0FEC 009:058 JLINK_ReadReg(R1)  returns 0x00000003 (0000ms, 0654ms total)
T0FEC 009:058 JLINK_ReadReg(R2)  returns 0x4002203C (0000ms, 0654ms total)
T0FEC 009:058 JLINK_ReadReg(R3)  returns 0x04C11DB7 (0000ms, 0654ms total)
T0FEC 009:058 JLINK_ReadReg(R4)  returns 0x00000008 (0000ms, 0654ms total)
T0FEC 009:058 JLINK_ReadReg(R5)  returns 0xE0000000 (0000ms, 0654ms total)
T0FEC 009:058 JLINK_ReadReg(R6)  returns 0x00000000 (0000ms, 0654ms total)
T0FEC 009:058 JLINK_ReadReg(R7)  returns 0x2000018C (0000ms, 0654ms total)
T0FEC 009:058 JLINK_ReadReg(R8)  returns 0x00000000 (0000ms, 0654ms total)
T0FEC 009:058 JLINK_ReadReg(R9)  returns 0x20000160 (0000ms, 0654ms total)
T0FEC 009:058 JLINK_ReadReg(R10)  returns 0x00000000 (0000ms, 0654ms total)
T0FEC 009:058 JLINK_ReadReg(R11)  returns 0x00000000 (0000ms, 0654ms total)
T0FEC 009:058 JLINK_ReadReg(R12)  returns 0x00000000 (0000ms, 0654ms total)
T0FEC 009:058 JLINK_ReadReg(R13 (SP))  returns 0x20004FE0 (0000ms, 0654ms total)
T0FEC 009:058 JLINK_ReadReg(R14)  returns 0xFFFFFFF9 (0000ms, 0654ms total)
T0FEC 009:058 JLINK_ReadReg(R15 (PC))  returns 0x2000000C (0000ms, 0654ms total)
T0FEC 009:058 JLINK_ReadReg(XPSR)  returns 0x01000003 (0000ms, 0654ms total)
T0FEC 009:058 JLINK_ReadReg(MSP)  returns 0x20004FE0 (0000ms, 0654ms total)
T0FEC 009:058 JLINK_ReadReg(PSP)  returns 0x20001000 (0000ms, 0654ms total)
T0FEC 009:058 JLINK_ReadReg(CFBP)  returns 0x00000000 (0000ms, 0654ms total)
T1B44 009:059 JLINK_ReadMem (0x20004FF8, 0x0004 Bytes, ...) -- Read from C cache (4 bytes @ 0x20004FF8) - Data: F4 01 00 20  returns 0x00 (0000ms, 0654ms total)
T1B44 009:059 JLINK_ReadMem (0x20004FFC, 0x0004 Bytes, ...) -- Read from C cache (4 bytes @ 0x20004FFC) - Data: 00 00 00 01  returns 0x00 (0000ms, 0654ms total)
T1B44 009:059 JLINK_ReadMem (0x20004FF4, 0x0004 Bytes, ...) -- Read from C cache (4 bytes @ 0x20004FF4) - Data: FF FF FF FF  returns 0x00 (0000ms, 0654ms total)
T1B44 009:059 JLINK_ReadMem (0xE000ED28, 0x0004 Bytes, ...) -- CPU_ReadMem(4 bytes @ 0xE000ED28) - Data: 00 04 02 00  returns 0x00 (0001ms, 0655ms total)
T1B44 009:060 JLINK_ReadMem (0x200009D8, 0x0020 Bytes, ...) -- Read from C cache (32 bytes @ 0x200009D8) - Data: A9 23 2A 6A 2B 3C 2D 77 7C 06 B9 34 7A 04 EA 18 ...  returns 0x00 (0000ms, 0655ms total)
T0FEC 009:400 JLINK_ReadMem (0x2000000C, 0x003C Bytes, ...) -- Read from C cache (60 bytes @ 0x2000000C) - Data: 40 00 00 D3 58 40 64 1E FA D1 49 1C 52 1E 00 2A ...  returns 0x00 (0000ms, 0655ms total)
T0FEC 009:400 JLINK_Step() -- Read from C cache (2 bytes @ 0x2000000C) -- Simulated  returns 0x00 (0000ms, 0655ms total)
T0FEC 009:400 JLINK_ReadReg(R15 (PC))  returns 0x2000000E (0000ms, 0655ms total)
T0FEC 009:400 JLINK_ReadReg(XPSR)  returns 0xA1000003 (0000ms, 0655ms total)
T0FEC 009:400 JLINK_ReadReg(R0)  returns 0xC0000058 (0000ms, 0655ms total)
T0FEC 009:400 JLINK_ReadReg(R1)  returns 0x00000003 (0000ms, 0655ms total)
T0FEC 009:400 JLINK_ReadReg(R2)  returns 0x4002203C (0000ms, 0655ms total)
T0FEC 009:400 JLINK_ReadReg(R3)  returns 0x04C11DB7 (0000ms, 0655ms total)
T0FEC 009:400 JLINK_ReadReg(R4)  returns 0x00000008 (0000ms, 0655ms total)
T0FEC 009:400 JLINK_ReadReg(R5)  returns 0xE0000000 (0000ms, 0655ms total)
T0FEC 009:400 JLINK_ReadReg(R6)  returns 0x00000000 (0000ms, 0655ms total)
T0FEC 009:400 JLINK_ReadReg(R7)  returns 0x2000018C (0000ms, 0655ms total)
T0FEC 009:400 JLINK_ReadReg(R8)  returns 0x00000000 (0000ms, 0655ms total)
T0FEC 009:400 JLINK_ReadReg(R9)  returns 0x20000160 (0000ms, 0655ms total)
T0FEC 009:400 JLINK_ReadReg(R10)  returns 0x00000000 (0000ms, 0655ms total)
T0FEC 009:400 JLINK_ReadReg(R11)  returns 0x00000000 (0000ms, 0655ms total)
T0FEC 009:400 JLINK_ReadReg(R12)  returns 0x00000000 (0000ms, 0655ms total)
T0FEC 009:400 JLINK_ReadReg(R13 (SP))  returns 0x20004FE0 (0000ms, 0655ms total)
T0FEC 009:400 JLINK_ReadReg(R14)  returns 0xFFFFFFF9 (0000ms, 0655ms total)
T0FEC 009:400 JLINK_ReadReg(R15 (PC))  returns 0x2000000E (0000ms, 0655ms total)
T0FEC 009:400 JLINK_ReadReg(XPSR)  returns 0xA1000003 (0000ms, 0655ms total)
T0FEC 009:400 JLINK_ReadReg(MSP)  returns 0x20004FE0 (0000ms, 0655ms total)
T0FEC 009:400 JLINK_ReadReg(PSP)  returns 0x20001000 (0000ms, 0655ms total)
T0FEC 009:400 JLINK_ReadReg(CFBP)  returns 0x00000000 (0000ms, 0655ms total)
T1B44 009:401 JLINK_ReadMem (0x20004FF8, 0x0004 Bytes, ...) -- Read from C cache (4 bytes @ 0x20004FF8) - Data: F4 01 00 20  returns 0x00 (0000ms, 0655ms total)
T1B44 009:401 JLINK_ReadMem (0x20004FFC, 0x0004 Bytes, ...) -- Read from C cache (4 bytes @ 0x20004FFC) - Data: 00 00 00 01  returns 0x00 (0000ms, 0655ms total)
T1B44 009:401 JLINK_ReadMem (0x20004FF4, 0x0004 Bytes, ...) -- Read from C cache (4 bytes @ 0x20004FF4) - Data: FF FF FF FF  returns 0x00 (0000ms, 0655ms total)
T1B44 009:401 JLINK_ReadMem (0xE000ED28, 0x0004 Bytes, ...) -- CPU_ReadMem(4 bytes @ 0xE000ED28) - Data: 00 04 02 00  returns 0x00 (0000ms, 0655ms total)
T1B44 009:401 JLINK_ReadMem (0x200009D8, 0x0020 Bytes, ...) -- Read from C cache (32 bytes @ 0x200009D8) - Data: A9 23 2A 6A 2B 3C 2D 77 7C 06 B9 34 7A 04 EA 18 ...  returns 0x00 (0000ms, 0655ms total)
T0FEC 009:602 JLINK_ReadMem (0x2000000E, 0x0002 Bytes, ...) -- Read from C cache (2 bytes @ 0x2000000E) - Data: 00 D3  returns 0x00 (0000ms, 0655ms total)
T0FEC 009:602 JLINK_ReadMem (0x20000010, 0x003C Bytes, ...) -- Read from C cache (60 bytes @ 0x20000010) - Data: 58 40 64 1E FA D1 49 1C 52 1E 00 2A F2 D1 70 47 ...  returns 0x00 (0000ms, 0655ms total)
T0FEC 009:602 JLINK_Step() -- Read from C cache (2 bytes @ 0x2000000E) -- Simulated  returns 0x00 (0000ms, 0655ms total)
T0FEC 009:602 JLINK_ReadReg(R15 (PC))  returns 0x20000010 (0000ms, 0655ms total)
T0FEC 009:602 JLINK_ReadReg(XPSR)  returns 0xA1000003 (0000ms, 0655ms total)
T0FEC 009:602 JLINK_ReadReg(R0)  returns 0xC0000058 (0000ms, 0655ms total)
T0FEC 009:602 JLINK_ReadReg(R1)  returns 0x00000003 (0000ms, 0655ms total)
T0FEC 009:602 JLINK_ReadReg(R2)  returns 0x4002203C (0000ms, 0655ms total)
T0FEC 009:602 JLINK_ReadReg(R3)  returns 0x04C11DB7 (0000ms, 0655ms total)
T0FEC 009:602 JLINK_ReadReg(R4)  returns 0x00000008 (0000ms, 0655ms total)
T0FEC 009:602 JLINK_ReadReg(R5)  returns 0xE0000000 (0000ms, 0655ms total)
T0FEC 009:602 JLINK_ReadReg(R6)  returns 0x00000000 (0000ms, 0655ms total)
T0FEC 009:602 JLINK_ReadReg(R7)  returns 0x2000018C (0000ms, 0655ms total)
T0FEC 009:602 JLINK_ReadReg(R8)  returns 0x00000000 (0000ms, 0655ms total)
T0FEC 009:602 JLINK_ReadReg(R9)  returns 0x20000160 (0000ms, 0655ms total)
T0FEC 009:602 JLINK_ReadReg(R10)  returns 0x00000000 (0000ms, 0655ms total)
T0FEC 009:602 JLINK_ReadReg(R11)  returns 0x00000000 (0000ms, 0655ms total)
T0FEC 009:602 JLINK_ReadReg(R12)  returns 0x00000000 (0000ms, 0655ms total)
T0FEC 009:602 JLINK_ReadReg(R13 (SP))  returns 0x20004FE0 (0000ms, 0655ms total)
T0FEC 009:602 JLINK_ReadReg(R14)  returns 0xFFFFFFF9 (0000ms, 0655ms total)
T0FEC 009:602 JLINK_ReadReg(R15 (PC))  returns 0x20000010 (0000ms, 0655ms total)
T0FEC 009:602 JLINK_ReadReg(XPSR)  returns 0xA1000003 (0000ms, 0655ms total)
T0FEC 009:602 JLINK_ReadReg(MSP)  returns 0x20004FE0 (0000ms, 0655ms total)
T0FEC 009:602 JLINK_ReadReg(PSP)  returns 0x20001000 (0000ms, 0655ms total)
T0FEC 009:602 JLINK_ReadReg(CFBP)  returns 0x00000000 (0000ms, 0655ms total)
T1B44 009:604 JLINK_ReadMem (0x20004FF8, 0x0004 Bytes, ...) -- Read from C cache (4 bytes @ 0x20004FF8) - Data: F4 01 00 20  returns 0x00 (0000ms, 0655ms total)
T1B44 009:604 JLINK_ReadMem (0x20004FFC, 0x0004 Bytes, ...) -- Read from C cache (4 bytes @ 0x20004FFC) - Data: 00 00 00 01  returns 0x00 (0000ms, 0655ms total)
T1B44 009:604 JLINK_ReadMem (0x20004FF4, 0x0004 Bytes, ...) -- Read from C cache (4 bytes @ 0x20004FF4) - Data: FF FF FF FF  returns 0x00 (0000ms, 0655ms total)
T1B44 009:604 JLINK_ReadMem (0xE000ED28, 0x0004 Bytes, ...) -- CPU_ReadMem(4 bytes @ 0xE000ED28) - Data: 00 04 02 00  returns 0x00 (0000ms, 0655ms total)
T1B44 009:604 JLINK_ReadMem (0x200009D8, 0x0020 Bytes, ...) -- Read from C cache (32 bytes @ 0x200009D8) - Data: A9 23 2A 6A 2B 3C 2D 77 7C 06 B9 34 7A 04 EA 18 ...  returns 0x00 (0000ms, 0655ms total)
T0FEC 009:776 JLINK_ReadMem (0x20000010, 0x003C Bytes, ...) -- Read from C cache (60 bytes @ 0x20000010) - Data: 58 40 64 1E FA D1 49 1C 52 1E 00 2A F2 D1 70 47 ...  returns 0x00 (0000ms, 0655ms total)
T0FEC 009:776 JLINK_Step() -- Read from C cache (2 bytes @ 0x20000010) -- Simulated  returns 0x00 (0000ms, 0655ms total)
T0FEC 009:776 JLINK_ReadReg(R15 (PC))  returns 0x20000012 (0000ms, 0655ms total)
T0FEC 009:776 JLINK_ReadReg(XPSR)  returns 0xA1000003 (0000ms, 0655ms total)
T0FEC 009:776 JLINK_ReadReg(R0)  returns 0xC4C11DEF (0000ms, 0655ms total)
T0FEC 009:776 JLINK_ReadReg(R1)  returns 0x00000003 (0000ms, 0655ms total)
T0FEC 009:776 JLINK_ReadReg(R2)  returns 0x4002203C (0000ms, 0655ms total)
T0FEC 009:776 JLINK_ReadReg(R3)  returns 0x04C11DB7 (0000ms, 0655ms total)
T0FEC 009:776 JLINK_ReadReg(R4)  returns 0x00000008 (0000ms, 0655ms total)
T0FEC 009:776 JLINK_ReadReg(R5)  returns 0xE0000000 (0000ms, 0655ms total)
T0FEC 009:776 JLINK_ReadReg(R6)  returns 0x00000000 (0000ms, 0655ms total)
T0FEC 009:776 JLINK_ReadReg(R7)  returns 0x2000018C (0000ms, 0655ms total)
T0FEC 009:776 JLINK_ReadReg(R8)  returns 0x00000000 (0000ms, 0655ms total)
T0FEC 009:776 JLINK_ReadReg(R9)  returns 0x20000160 (0000ms, 0655ms total)
T0FEC 009:776 JLINK_ReadReg(R10)  returns 0x00000000 (0000ms, 0655ms total)
T0FEC 009:776 JLINK_ReadReg(R11)  returns 0x00000000 (0000ms, 0655ms total)
T0FEC 009:776 JLINK_ReadReg(R12)  returns 0x00000000 (0000ms, 0655ms total)
T0FEC 009:776 JLINK_ReadReg(R13 (SP))  returns 0x20004FE0 (0000ms, 0655ms total)
T0FEC 009:776 JLINK_ReadReg(R14)  returns 0xFFFFFFF9 (0000ms, 0655ms total)
T0FEC 009:776 JLINK_ReadReg(R15 (PC))  returns 0x20000012 (0000ms, 0655ms total)
T0FEC 009:776 JLINK_ReadReg(XPSR)  returns 0xA1000003 (0000ms, 0655ms total)
T0FEC 009:776 JLINK_ReadReg(MSP)  returns 0x20004FE0 (0000ms, 0655ms total)
T0FEC 009:776 JLINK_ReadReg(PSP)  returns 0x20001000 (0000ms, 0655ms total)
T0FEC 009:776 JLINK_ReadReg(CFBP)  returns 0x00000000 (0000ms, 0655ms total)
T1B44 009:777 JLINK_ReadMem (0x20004FF8, 0x0004 Bytes, ...) -- Read from C cache (4 bytes @ 0x20004FF8) - Data: F4 01 00 20  returns 0x00 (0000ms, 0655ms total)
T1B44 009:777 JLINK_ReadMem (0x20004FFC, 0x0004 Bytes, ...) -- Read from C cache (4 bytes @ 0x20004FFC) - Data: 00 00 00 01  returns 0x00 (0000ms, 0655ms total)
T1B44 009:777 JLINK_ReadMem (0x20004FF4, 0x0004 Bytes, ...) -- Read from C cache (4 bytes @ 0x20004FF4) - Data: FF FF FF FF  returns 0x00 (0000ms, 0655ms total)
T1B44 009:777 JLINK_ReadMem (0xE000ED28, 0x0004 Bytes, ...) -- CPU_ReadMem(4 bytes @ 0xE000ED28) - Data: 00 04 02 00  returns 0x00 (0000ms, 0655ms total)
T1B44 009:777 JLINK_ReadMem (0x200009D8, 0x0020 Bytes, ...) -- Read from C cache (32 bytes @ 0x200009D8) - Data: A9 23 2A 6A 2B 3C 2D 77 7C 06 B9 34 7A 04 EA 18 ...  returns 0x00 (0000ms, 0655ms total)
T0FEC 009:936 JLINK_ReadMem (0x20000012, 0x0002 Bytes, ...) -- Read from C cache (2 bytes @ 0x20000012) - Data: 64 1E  returns 0x00 (0000ms, 0655ms total)
T0FEC 009:936 JLINK_ReadMem (0x20000014, 0x003C Bytes, ...) -- Read from C cache (60 bytes @ 0x20000014) - Data: FA D1 49 1C 52 1E 00 2A F2 D1 70 47 05 E0 03 78 ...  returns 0x00 (0000ms, 0655ms total)
T0FEC 009:936 JLINK_Step() -- Read from C cache (2 bytes @ 0x20000012) -- Simulated  returns 0x00 (0000ms, 0655ms total)
T0FEC 009:936 JLINK_ReadReg(R15 (PC))  returns 0x20000014 (0000ms, 0655ms total)
T0FEC 009:936 JLINK_ReadReg(XPSR)  returns 0x21000003 (0000ms, 0655ms total)
T0FEC 009:936 JLINK_ReadReg(R0)  returns 0xC4C11DEF (0000ms, 0655ms total)
T0FEC 009:936 JLINK_ReadReg(R1)  returns 0x00000003 (0000ms, 0655ms total)
T0FEC 009:936 JLINK_ReadReg(R2)  returns 0x4002203C (0000ms, 0655ms total)
T0FEC 009:936 JLINK_ReadReg(R3)  returns 0x04C11DB7 (0000ms, 0655ms total)
T0FEC 009:936 JLINK_ReadReg(R4)  returns 0x00000007 (0000ms, 0655ms total)
T0FEC 009:936 JLINK_ReadReg(R5)  returns 0xE0000000 (0000ms, 0655ms total)
T0FEC 009:936 JLINK_ReadReg(R6)  returns 0x00000000 (0000ms, 0655ms total)
T0FEC 009:936 JLINK_ReadReg(R7)  returns 0x2000018C (0000ms, 0655ms total)
T0FEC 009:936 JLINK_ReadReg(R8)  returns 0x00000000 (0000ms, 0655ms total)
T0FEC 009:936 JLINK_ReadReg(R9)  returns 0x20000160 (0000ms, 0655ms total)
T0FEC 009:936 JLINK_ReadReg(R10)  returns 0x00000000 (0000ms, 0655ms total)
T0FEC 009:936 JLINK_ReadReg(R11)  returns 0x00000000 (0000ms, 0655ms total)
T0FEC 009:936 JLINK_ReadReg(R12)  returns 0x00000000 (0000ms, 0655ms total)
T0FEC 009:936 JLINK_ReadReg(R13 (SP))  returns 0x20004FE0 (0000ms, 0655ms total)
T0FEC 009:936 JLINK_ReadReg(R14)  returns 0xFFFFFFF9 (0000ms, 0655ms total)
T0FEC 009:936 JLINK_ReadReg(R15 (PC))  returns 0x20000014 (0000ms, 0655ms total)
T0FEC 009:936 JLINK_ReadReg(XPSR)  returns 0x21000003 (0000ms, 0655ms total)
T0FEC 009:936 JLINK_ReadReg(MSP)  returns 0x20004FE0 (0000ms, 0655ms total)
T0FEC 009:936 JLINK_ReadReg(PSP)  returns 0x20001000 (0000ms, 0655ms total)
T0FEC 009:936 JLINK_ReadReg(CFBP)  returns 0x00000000 (0000ms, 0655ms total)
T1B44 009:938 JLINK_ReadMem (0x20004FF8, 0x0004 Bytes, ...) -- Read from C cache (4 bytes @ 0x20004FF8) - Data: F4 01 00 20  returns 0x00 (0000ms, 0655ms total)
T1B44 009:938 JLINK_ReadMem (0x20004FFC, 0x0004 Bytes, ...) -- Read from C cache (4 bytes @ 0x20004FFC) - Data: 00 00 00 01  returns 0x00 (0000ms, 0655ms total)
T1B44 009:938 JLINK_ReadMem (0x20004FF4, 0x0004 Bytes, ...) -- Read from C cache (4 bytes @ 0x20004FF4) - Data: FF FF FF FF  returns 0x00 (0000ms, 0655ms total)
T1B44 009:938 JLINK_ReadMem (0xE000ED28, 0x0004 Bytes, ...) -- CPU_ReadMem(4 bytes @ 0xE000ED28) - Data: 00 04 02 00  returns 0x00 (0000ms, 0655ms total)
T1B44 009:938 JLINK_ReadMem (0x200009D8, 0x0020 Bytes, ...) -- Read from C cache (32 bytes @ 0x200009D8) - Data: A9 23 2A 6A 2B 3C 2D 77 7C 06 B9 34 7A 04 EA 18 ...  returns 0x00 (0000ms, 0655ms total)
T0FEC 010:094 JLINK_ReadMem (0x20000014, 0x003C Bytes, ...) -- Read from C cache (60 bytes @ 0x20000014) - Data: FA D1 49 1C 52 1E 00 2A F2 D1 70 47 05 E0 03 78 ...  returns 0x00 (0000ms, 0655ms total)
T0FEC 010:094 JLINK_Step() -- Read from C cache (2 bytes @ 0x20000014) -- Simulated  returns 0x00 (0000ms, 0655ms total)
T0FEC 010:094 JLINK_ReadReg(R15 (PC))  returns 0x2000000C (0000ms, 0655ms total)
T0FEC 010:094 JLINK_ReadReg(XPSR)  returns 0x21000003 (0000ms, 0655ms total)
T0FEC 010:094 JLINK_ReadReg(R0)  returns 0xC4C11DEF (0000ms, 0655ms total)
T0FEC 010:094 JLINK_ReadReg(R1)  returns 0x00000003 (0000ms, 0655ms total)
T0FEC 010:094 JLINK_ReadReg(R2)  returns 0x4002203C (0000ms, 0655ms total)
T0FEC 010:094 JLINK_ReadReg(R3)  returns 0x04C11DB7 (0000ms, 0655ms total)
T0FEC 010:094 JLINK_ReadReg(R4)  returns 0x00000007 (0000ms, 0655ms total)
T0FEC 010:094 JLINK_ReadReg(R5)  returns 0xE0000000 (0000ms, 0655ms total)
T0FEC 010:094 JLINK_ReadReg(R6)  returns 0x00000000 (0000ms, 0655ms total)
T0FEC 010:094 JLINK_ReadReg(R7)  returns 0x2000018C (0000ms, 0655ms total)
T0FEC 010:094 JLINK_ReadReg(R8)  returns 0x00000000 (0000ms, 0655ms total)
T0FEC 010:094 JLINK_ReadReg(R9)  returns 0x20000160 (0000ms, 0655ms total)
T0FEC 010:094 JLINK_ReadReg(R10)  returns 0x00000000 (0000ms, 0655ms total)
T0FEC 010:094 JLINK_ReadReg(R11)  returns 0x00000000 (0000ms, 0655ms total)
T0FEC 010:094 JLINK_ReadReg(R12)  returns 0x00000000 (0000ms, 0655ms total)
T0FEC 010:094 JLINK_ReadReg(R13 (SP))  returns 0x20004FE0 (0000ms, 0655ms total)
T0FEC 010:094 JLINK_ReadReg(R14)  returns 0xFFFFFFF9 (0000ms, 0655ms total)
T0FEC 010:094 JLINK_ReadReg(R15 (PC))  returns 0x2000000C (0000ms, 0655ms total)
T0FEC 010:094 JLINK_ReadReg(XPSR)  returns 0x21000003 (0000ms, 0655ms total)
T0FEC 010:094 JLINK_ReadReg(MSP)  returns 0x20004FE0 (0000ms, 0655ms total)
T0FEC 010:094 JLINK_ReadReg(PSP)  returns 0x20001000 (0000ms, 0655ms total)
T0FEC 010:094 JLINK_ReadReg(CFBP)  returns 0x00000000 (0000ms, 0655ms total)
T1B44 010:095 JLINK_ReadMem (0x20004FF8, 0x0004 Bytes, ...) -- Read from C cache (4 bytes @ 0x20004FF8) - Data: F4 01 00 20  returns 0x00 (0000ms, 0655ms total)
T1B44 010:095 JLINK_ReadMem (0x20004FFC, 0x0004 Bytes, ...) -- Read from C cache (4 bytes @ 0x20004FFC) - Data: 00 00 00 01  returns 0x00 (0000ms, 0655ms total)
T1B44 010:095 JLINK_ReadMem (0x20004FF4, 0x0004 Bytes, ...) -- Read from C cache (4 bytes @ 0x20004FF4) - Data: FF FF FF FF  returns 0x00 (0000ms, 0655ms total)
T1B44 010:095 JLINK_ReadMem (0xE000ED28, 0x0004 Bytes, ...) -- CPU_ReadMem(4 bytes @ 0xE000ED28) - Data: 00 04 02 00  returns 0x00 (0000ms, 0655ms total)
T1B44 010:095 JLINK_ReadMem (0x200009D8, 0x0020 Bytes, ...) -- Read from C cache (32 bytes @ 0x200009D8) - Data: A9 23 2A 6A 2B 3C 2D 77 7C 06 B9 34 7A 04 EA 18 ...  returns 0x00 (0000ms, 0655ms total)
T0FEC 010:248 JLINK_ReadMem (0x2000000C, 0x003C Bytes, ...) -- Read from C cache (60 bytes @ 0x2000000C) - Data: 40 00 00 D3 58 40 64 1E FA D1 49 1C 52 1E 00 2A ...  returns 0x00 (0000ms, 0655ms total)
T0FEC 010:248 JLINK_Step() -- Read from C cache (2 bytes @ 0x2000000C) -- Simulated  returns 0x00 (0000ms, 0655ms total)
T0FEC 010:248 JLINK_ReadReg(R15 (PC))  returns 0x2000000E (0000ms, 0655ms total)
T0FEC 010:248 JLINK_ReadReg(XPSR)  returns 0xA1000003 (0000ms, 0655ms total)
T0FEC 010:248 JLINK_ReadReg(R0)  returns 0x89823BDE (0000ms, 0655ms total)
T0FEC 010:248 JLINK_ReadReg(R1)  returns 0x00000003 (0000ms, 0655ms total)
T0FEC 010:248 JLINK_ReadReg(R2)  returns 0x4002203C (0000ms, 0655ms total)
T0FEC 010:248 JLINK_ReadReg(R3)  returns 0x04C11DB7 (0000ms, 0655ms total)
T0FEC 010:248 JLINK_ReadReg(R4)  returns 0x00000007 (0000ms, 0655ms total)
T0FEC 010:248 JLINK_ReadReg(R5)  returns 0xE0000000 (0000ms, 0655ms total)
T0FEC 010:248 JLINK_ReadReg(R6)  returns 0x00000000 (0000ms, 0655ms total)
T0FEC 010:248 JLINK_ReadReg(R7)  returns 0x2000018C (0000ms, 0655ms total)
T0FEC 010:248 JLINK_ReadReg(R8)  returns 0x00000000 (0000ms, 0655ms total)
T0FEC 010:248 JLINK_ReadReg(R9)  returns 0x20000160 (0000ms, 0655ms total)
T0FEC 010:248 JLINK_ReadReg(R10)  returns 0x00000000 (0001ms, 0656ms total)
T0FEC 010:249 JLINK_ReadReg(R11)  returns 0x00000000 (0000ms, 0656ms total)
T0FEC 010:249 JLINK_ReadReg(R12)  returns 0x00000000 (0000ms, 0656ms total)
T0FEC 010:249 JLINK_ReadReg(R13 (SP))  returns 0x20004FE0 (0000ms, 0656ms total)
T0FEC 010:249 JLINK_ReadReg(R14)  returns 0xFFFFFFF9 (0000ms, 0656ms total)
T0FEC 010:249 JLINK_ReadReg(R15 (PC))  returns 0x2000000E (0000ms, 0656ms total)
T0FEC 010:249 JLINK_ReadReg(XPSR)  returns 0xA1000003 (0000ms, 0656ms total)
T0FEC 010:249 JLINK_ReadReg(MSP)  returns 0x20004FE0 (0000ms, 0656ms total)
T0FEC 010:249 JLINK_ReadReg(PSP)  returns 0x20001000 (0000ms, 0656ms total)
T0FEC 010:249 JLINK_ReadReg(CFBP)  returns 0x00000000 (0000ms, 0656ms total)
T1B44 010:249 JLINK_ReadMem (0x20004FF8, 0x0004 Bytes, ...) -- Read from C cache (4 bytes @ 0x20004FF8) - Data: F4 01 00 20  returns 0x00 (0000ms, 0656ms total)
T1B44 010:249 JLINK_ReadMem (0x20004FFC, 0x0004 Bytes, ...) -- Read from C cache (4 bytes @ 0x20004FFC) - Data: 00 00 00 01  returns 0x00 (0000ms, 0656ms total)
T1B44 010:249 JLINK_ReadMem (0x20004FF4, 0x0004 Bytes, ...) -- Read from C cache (4 bytes @ 0x20004FF4) - Data: FF FF FF FF  returns 0x00 (0000ms, 0656ms total)
T1B44 010:249 JLINK_ReadMem (0xE000ED28, 0x0004 Bytes, ...) -- CPU_ReadMem(4 bytes @ 0xE000ED28) - Data: 00 04 02 00  returns 0x00 (0001ms, 0657ms total)
T1B44 010:250 JLINK_ReadMem (0x200009D8, 0x0020 Bytes, ...) -- Read from C cache (32 bytes @ 0x200009D8) - Data: A9 23 2A 6A 2B 3C 2D 77 7C 06 B9 34 7A 04 EA 18 ...  returns 0x00 (0000ms, 0657ms total)
T0FEC 010:412 JLINK_ReadMem (0x2000000E, 0x0002 Bytes, ...) -- Read from C cache (2 bytes @ 0x2000000E) - Data: 00 D3  returns 0x00 (0000ms, 0657ms total)
T0FEC 010:412 JLINK_ReadMem (0x20000010, 0x003C Bytes, ...) -- Read from C cache (60 bytes @ 0x20000010) - Data: 58 40 64 1E FA D1 49 1C 52 1E 00 2A F2 D1 70 47 ...  returns 0x00 (0000ms, 0657ms total)
T0FEC 010:412 JLINK_Step() -- Read from C cache (2 bytes @ 0x2000000E) -- Simulated  returns 0x00 (0000ms, 0657ms total)
T0FEC 010:412 JLINK_ReadReg(R15 (PC))  returns 0x20000010 (0000ms, 0657ms total)
T0FEC 010:412 JLINK_ReadReg(XPSR)  returns 0xA1000003 (0000ms, 0657ms total)
T0FEC 010:412 JLINK_ReadReg(R0)  returns 0x89823BDE (0000ms, 0657ms total)
T0FEC 010:412 JLINK_ReadReg(R1)  returns 0x00000003 (0000ms, 0657ms total)
T0FEC 010:412 JLINK_ReadReg(R2)  returns 0x4002203C (0000ms, 0657ms total)
T0FEC 010:412 JLINK_ReadReg(R3)  returns 0x04C11DB7 (0000ms, 0657ms total)
T0FEC 010:412 JLINK_ReadReg(R4)  returns 0x00000007 (0000ms, 0657ms total)
T0FEC 010:412 JLINK_ReadReg(R5)  returns 0xE0000000 (0000ms, 0657ms total)
T0FEC 010:412 JLINK_ReadReg(R6)  returns 0x00000000 (0000ms, 0657ms total)
T0FEC 010:412 JLINK_ReadReg(R7)  returns 0x2000018C (0000ms, 0657ms total)
T0FEC 010:412 JLINK_ReadReg(R8)  returns 0x00000000 (0000ms, 0657ms total)
T0FEC 010:412 JLINK_ReadReg(R9)  returns 0x20000160 (0000ms, 0657ms total)
T0FEC 010:412 JLINK_ReadReg(R10)  returns 0x00000000 (0000ms, 0657ms total)
T0FEC 010:412 JLINK_ReadReg(R11)  returns 0x00000000 (0000ms, 0657ms total)
